;freq[Hz];re:Trc1_S11;im:Trc1_S11;re:Trc2_S21;im:Trc2_S21;location
0;2442500000.0;0.0650930851697921;-0.1788874864578247;0.0024998942390084;9.147237869910896e-05;3
1;2495000000.0;-0.1670166701078415;0.0181901361793279;-0.0006529667298309;0.0029940600506961;2
2;2404333333.333334;0.1767132133245468;0.0531339012086391;-0.0027967130299657;-0.0015168132958933;1
3;2461166666.666667;-0.0300179738551378;-0.1801565885543823;-0.0007546768174506;-0.0026164618320763;4
4;2494500000.0;-0.1800167113542557;0.0091819018125534;-0.0013176857028156;-0.0001884677185444;3
5;2451333333.333334;0.015269374474883;-0.1870851814746857;0.0002352410083403;-0.0023114129435271;3
6;2449833333.333334;0.0248235110193491;-0.1891504377126694;-0.0020135610830038;-0.0004589346935972;2
7;2476500000.0;-0.1255181580781937;-0.127734586596489;0.0035535949282348;-0.0007933009183034;3
8;2421166666.666667;0.1780100464820862;-0.049694288522005;0.0014513852074742;0.0011946072336286;1
9;2456666666.666667;-0.0070932921953499;-0.1770430058240891;0.0007174446363933;-0.00250611663796;4
10;2482333333.333334;-0.1445515006780624;-0.0885710790753364;-0.0019770027138292;-0.0018642942886799;2
11;2473500000.0;-0.0744847059249877;-0.1660826802253723;-0.0005608726060017;-0.0009632552391849;1
12;2458833333.333334;0.0383944511413574;-0.1802876889705658;0.0012939609587192;0.0018696961924433;1
13;2422833333.333334;0.1500490754842758;-0.0956290587782859;-0.0005787619738839;-0.001408303854987;3
14;2497166666.666667;-0.1641734391450882;0.0291199218481779;-0.0005679878522641;-0.0029428447596728;4
15;2416666666.666667;0.1577621400356293;-0.0671096593141555;-0.0035605889279395;0.0008987824548967;2
16;2484666666.666667;-0.1567182987928391;-0.0661322623491287;-0.0021707427222281;-0.0002409500157227;2
17;2439333333.333334;0.0769232884049415;-0.1593438237905502;-0.0005173602257855;0.0045606894418597;4
18;2467166666.666667;-0.0266684703528881;-0.1869162321090698;0.0006594099686481;-0.0014774728333577;1
19;2434500000.0;0.1112747713923454;-0.159366711974144;-0.0008220981108024;0.0029305515345186;3
20;2431500000.0;0.1182562187314034;-0.1432184427976608;-0.0034965907689183;-0.0024930033832788;4
21;2494166666.666667;-0.1611402630805969;-0.0065830051898956;-0.0013369627995416;-0.0021449197083711;4
22;2406666666.666667;0.194893017411232;0.0448082126677036;-0.002511789323762;-0.0004889570991508;1
23;2499166666.666667;-0.1643548756837845;0.0181864351034164;0.0019633241463452;0.0009957730071619;1
24;2438833333.333334;0.0846882760524749;-0.166743591427803;0.0013933377340435;-0.0016379386652261;2
25;2441333333.333334;0.0779237672686576;-0.1697637736797333;0.0010474247392266;-0.0022128601558506;2
26;2497166666.666667;-0.172232985496521;-0.0121249509975314;0.0015566665679216;0.0015693499008193;1
27;2495333333.333334;-0.1603039652109146;0.0084302173927426;-0.0008163837483152;-0.001805686741136;4
28;2425500000.0;0.1561656296253204;-0.114698201417923;-0.0022141204681247;-0.0008983723237179;3
29;2411666666.666667;0.1681169122457504;-0.023948423564434;0.0012629352277144;-0.0028052371926605;3
30;2408666666.666667;0.1769291311502457;0.0045931721106171;0.002930567599833;-0.002129410393536;3
31;2403500000.0;0.1680476814508438;0.0617343224585056;-0.0027643041685223;-0.0022561780642718;1
32;2426500000.0;0.1308690458536148;-0.1154450848698616;-0.0004573907353915;0.003249418688938;2
33;2447666666.666667;0.0378762297332286;-0.1678052693605423;0.004415578674525;0.0015924036270007;4
34;2436833333.333334;0.1095645874738693;-0.1662908047437668;0.0011841758387163;0.0032351172994822;3
35;2425333333.333334;0.1690587103366852;-0.0908620581030845;0.001621687086299;0.0003942505572922;1
36;2430000000.0;0.1585393846035004;-0.1069115400314331;0.0017338511534035;-0.0016058087348937;1
37;2459666666.666667;0.0312633998692035;-0.1756581217050552;0.0019375428091734;0.0015403336146846;1
38;2437166666.666667;0.1362491995096207;-0.1410531997680664;-0.0005172825185582;-0.0016069164266809;1
39;2412000000.0;0.1681768447160721;-0.0279889889061451;0.0011185059556737;-0.0029602490831166;3
40;2443166666.666667;0.0722417384386062;-0.1665018796920776;0.0009053249959833;0.0024851132184267;4
41;2479500000.0;-0.145344614982605;-0.1108011901378632;0.0034779899287968;0.0037282186094671;4
42;2435666666.666667;0.1110604777932167;-0.1647773236036301;-1.489486294303788e-05;0.0033848292659968;3
43;2455500000.0;0.003677288768813;-0.1776524782180786;0.0011914977803826;-0.0026632891967892;4
44;2408666666.666667;0.1756639331579208;-0.0236798711121082;-0.001426589093171;0.0036961203441023;4
45;2424500000.0;0.1397043168544769;-0.1037133261561394;-0.001335653825663;0.0014812933513894;2
46;2417333333.333334;0.2022583186626434;-0.0360809229314327;0.0004579802043735;0.0030062024015933;1
47;2418833333.333334;0.1675788760185242;-0.0637278035283088;-0.0008877670043148;-0.0002240873145638;3
48;2487333333.333334;-0.160872757434845;-0.0569114796817302;-0.000839972984977;-0.001644909963943;3
49;2491166666.666667;-0.1673615872859955;-0.0332625098526477;0.0004131211608182;-0.0049659716896712;4
50;2454666666.666667;-0.0033516399562358;-0.1818154603242874;-0.002702304162085;0.0011511708144098;2
51;2474833333.333334;-0.0997293516993522;-0.1323312222957611;-0.0030807736329734;0.0036119255237281;4
52;2476000000.0;-0.1272964179515839;-0.1229224279522896;0.0014840714866295;-0.0029877475462853;2
53;2491000000.0;-0.1594571322202683;-0.0557157024741172;-0.0004153233603574;0.0033579538576304;1
54;2423833333.333334;0.1445264965295792;-0.0958348363637924;0.0018375287763774;-0.0045730280689895;4
55;2495333333.333334;-0.1806928962469101;-0.0272548384964466;0.0010234115179628;0.0013458194443956;1
56;2417166666.666667;0.1523071527481079;-0.0738461837172508;0.0027313160244375;-0.0011722112540155;4
57;2418000000.0;0.1551287770271301;-0.0773544386029243;-0.0024506761692464;0.001870818901807;2
58;2496666666.666667;-0.1751721501350403;-0.0176780093461275;0.0013837969163432;0.001459588878788;1
59;2491000000.0;-0.1679489463567734;-0.0110082402825355;-0.0015425203600898;-0.0006938240258023;3
60;2449166666.666667;0.0362240523099899;-0.1880767941474915;0.0012790047330781;-0.0021409036125987;3
61;2474833333.333334;-0.1194014921784401;-0.1291417479515076;0.0019930333364754;-0.0018909032223746;2
62;2441000000.0;0.0785743445158004;-0.1699205487966538;0.002564834896475;0.0006869010394439;3
63;2425166666.666667;0.1552743315696716;-0.1133122071623802;-0.0020107545424252;-0.0009619161137379;3
64;2477833333.333334;-0.1314921081066132;-0.1112159043550491;0.0012483886675909;0.0055390028282999;4
65;2469166666.666667;-0.0902865678071975;-0.1629454046487808;-0.0023166118189692;0.0004134312621317;4
66;2406833333.333334;0.1954840123653412;0.0446780733764171;-0.0024079943541437;-0.0005803562817163;1
67;2479666666.666667;-0.1463349312543869;-0.1107964739203453;0.0036330621223896;0.0037969520781189;4
68;2410333333.333334;0.1704214811325073;-0.0089539187029004;0.0019878789316862;-0.002428556093946;3
69;2434333333.333334;0.1126975268125534;-0.1386277824640274;-0.0054835709743201;0.000485481985379;4
70;2461333333.333334;0.011883832514286;-0.171594113111496;0.0024591702967882;0.0002105140301864;1
71;2454166666.666667;0.0418388210237026;-0.1834339797496796;0.0002778722555376;0.0011468231678009;1
72;2417000000.0;0.1769408285617828;-0.0599661916494369;-0.001518887351267;-0.0010624445276334;3
73;2455166666.666667;0.0427315160632133;-0.1887883394956589;0.0002875055070035;0.0010861429618671;1
74;2436333333.333334;0.137766644358635;-0.1424947082996368;-0.0004989536828361;-0.0015074019320309;1
75;2464833333.333334;-0.0227896571159362;-0.1847478747367859;0.0016839960590004;-0.0005002742982469;1
76;2426833333.333334;0.1192689687013626;-0.1069191694259644;-0.0014135343953967;-0.0036404517013579;4
77;2426833333.333334;0.1297241300344467;-0.1176013723015785;4.460992568056099e-05;0.0034718718379735;2
78;2430166666.666667;0.1570575833320618;-0.1078407913446426;0.0015358364908024;-0.0016554371686652;1
79;2467166666.666667;-0.0764532834291458;-0.1575174033641815;-0.0031632306054234;-1.406609317200491e-05;4
80;2484333333.333334;-0.1639971733093262;-0.0747679322957992;-0.0002731100539676;-0.0020508684683591;3
81;2471000000.0;-0.0967352017760276;-0.1528709828853607;0.0023174192756414;-0.0008962285937741;2
82;2414500000.0;0.1691506505012512;-0.0489816591143608;0.0043746083974838;0.0010717699769884;4
83;2411500000.0;0.1824645400047302;-0.0407706052064895;0.0025144841056317;0.0043860720470547;4
84;2406333333.333334;0.1800870895385742;0.0118795130401849;0.004219003021717;-0.0006809186888858;3
85;2471666666.666667;-0.1104253381490707;-0.1369169801473618;0.0025631715543568;0.0027036040555685;3
86;2461166666.666667;-0.0526161976158618;-0.176105260848999;-0.0036557058338075;-0.0009377184906043;3
87;2408333333.333334;0.1782656908035278;0.0065290327183902;0.0030657309107482;-0.001939492765814;3
88;2488666666.666667;-0.159784346818924;-0.0407156497240066;-0.0013463976792991;-0.0014843732351437;3
89;2465833333.333334;-0.075948417186737;-0.1720962375402451;-0.0026877592317759;0.0041792672127485;3
90;2478833333.333334;-0.1283425837755203;-0.1062141582369804;0.0021104111801832;-0.0024264357052743;3
91;2435666666.666667;0.1376739144325256;-0.1421753317117691;-0.0004479478811845;-0.0017195334658026;1
92;2483666666.666667;-0.1620027869939804;-0.0760452896356582;-1.244705913450162e-06;-0.0020224342588335;3
93;2435833333.333334;0.1010995879769325;-0.139086127281189;-0.0047292266972363;0.0029826569370925;4
94;2422500000.0;0.1498639285564423;-0.0922416299581527;-0.0004880995838902;-0.0015095969429239;3
95;2490000000.0;-0.1667482554912567;-0.0374433621764183;0.0025743034202605;-0.0048037804663181;4
96;2470500000.0;-0.0445886999368667;-0.1719261407852173;0.0002876580110751;-0.0015578399179503;1
97;2423000000.0;0.1471610367298126;-0.0969705209136009;-0.000470033759484;0.0012966941576451;2
98;2412833333.333334;0.1799244731664658;-0.0433735810220241;0.0037155891768634;0.0029122445266693;4
99;2480166666.666667;-0.1362292319536209;-0.0928647816181182;0.001223575673066;-0.0023961984552443;3
100;2420000000.0;0.1880452334880829;-0.0401974208652973;0.0016187141882255;0.0013868997339159;1
101;2402000000.0;0.1786853522062302;0.0367083176970481;-0.003593620378524;0.0018078004941344;4
102;2462333333.333334;-0.0014134930679574;-0.1739355474710465;0.0020356196910142;-0.0005096769309602;1
103;2454500000.0;-0.0087536964565515;-0.1950539946556091;-0.0006713683833368;-0.0023658683057874;3
104;2458333333.333334;-0.0201674923300743;-0.1795270889997482;0.0003851500805467;-0.0025133895687758;4
105;2400833333.333334;0.1516177356243134;0.1006767973303795;5.106376647745492e-06;-0.0034066988155245;1
106;2484166666.666667;-0.1398294270038605;-0.0870936140418052;0.0031928450334817;0.0002864013367798;4
107;2479500000.0;-0.1027687713503838;-0.1362885385751724;-0.0016625846037641;-0.0008829063735902;1
108;2418666666.666667;0.1977616101503372;-0.035737108439207;0.0013049485860392;0.0024663154035806;1
109;2448333333.333334;0.0297205112874507;-0.1864664107561112;-0.0018946300260722;-0.0008567265467718;2
110;2454000000.0;-0.006192204542458;-0.1938508301973343;-0.0004645313892979;-0.0023421698715537;3
111;2444833333.333334;0.0527023449540138;-0.1728519797325134;-0.0014113145880401;-0.0019320860737934;2
112;2465000000.0;-0.0232869051396846;-0.1852086633443832;0.0018717030761763;-0.0007054269080981;1
113;2481333333.333334;-0.1472864747047424;-0.1091008856892586;0.0036450738552957;0.0016277830582112;4
114;2456500000.0;-0.0163414254784584;-0.1939044743776321;-0.0011995036620646;-0.0021778079681098;3
115;2402166666.666667;0.1789977550506592;0.0361247174441814;-0.003641860326752;0.0019528632983565;4
116;2485833333.333334;-0.16364386677742;-0.0577519498765468;-0.0016476173186674;-0.0003935106797143;2
117;2455500000.0;-0.0108011765405535;-0.1813418567180634;-0.0025685331784188;0.0017996795941144;2
118;2461000000.0;0.0161323826760053;-0.1716089248657227;0.0024021561257541;0.0004945653490722;1
119;2475166666.666667;-0.1025043651461601;-0.1282759159803391;-0.0027976962737739;0.0039957272820174;4
120;2459500000.0;-0.0363324098289012;-0.1809281706809998;-0.0026265424676239;-0.0018556753639131;3
121;2459166666.666667;-0.032879926264286;-0.1851555705070496;0.0004235311353113;0.0029556977096945;2
122;2452000000.0;0.0501733310520649;-0.1679316014051437;8.585649629822001e-05;0.0019186892313882;1
123;2436166666.666667;0.1105251684784889;-0.1657165139913559;0.0003517787263263;0.0034921034239232;3
124;2492166666.666667;-0.1660846173763275;-0.0272601172327995;-0.0010624083224684;-0.0041301171295344;4
125;2453500000.0;-0.0032975894864648;-0.192749634385109;-0.000247224495979;-0.0024352329783141;3
126;2419666666.666667;0.1541402339935303;-0.0862810984253883;-0.0015185143565759;0.0016407029470428;2
127;2462500000.0;-0.0643180012702941;-0.1757898926734924;-0.0042853681370615;0.000181561379577;3
128;2424666666.666667;0.16771599650383;-0.0864769518375396;0.0015489566139876;0.000488230085466;1
129;2439000000.0;0.0844080746173858;-0.1672579199075699;0.001447039656341;-0.0014903011033311;2
130;2497000000.0;-0.1637323647737503;0.0276159923523664;-0.0005148826166987;-0.0026880262885242;4
131;2493833333.333334;-0.1811155378818512;-0.033698983490467;0.0014117400860413;0.0015414046356454;1
132;2454000000.0;0.002656741766259;-0.1823879927396774;-0.0027375412173569;0.0005388156860135;2
133;2491166666.666667;-0.1609650701284409;-0.053874310106039;-0.0003596943279262;0.0033716938924044;1
134;2434666666.666667;0.1369626969099045;-0.1396608054637909;2.987380321428645e-05;-0.0021857814863324;1
135;2416500000.0;0.1779011487960815;-0.0592379570007324;-0.0015980931930243;-0.0013227005256339;3
136;2478666666.666667;-0.1275945752859116;-0.1079531162977219;0.0023388878908008;-0.0023066885769367;3
137;2422333333.333334;0.1699722558259964;-0.0621541067957878;0.001516078133136;0.0009127765079028;1
138;2403666666.666667;0.16974937915802;0.0598170720040798;-0.0027716807089746;-0.0020669088698923;1
139;2470333333.333334;-0.094928041100502;-0.1558492630720139;0.0026063278783112;-0.000623335072305;2
140;2412166666.666667;0.1681589484214783;-0.0299266297370195;0.0009199603809975;-0.0029829232953488;3
141;2405833333.333334;0.1733097732067108;0.011096985079348;-0.0017208700301125;0.0021302918903529;4
142;2454833333.333334;0.0092398580163717;-0.1787389814853668;0.0015210551209747;-0.0024442742578685;4
143;2450166666.666667;0.0676091834902763;-0.1619960963726044;-0.0008150786161422;0.002246742369607;1
144;2469500000.0;-0.0359040237963199;-0.1770268231630325;0.0005777332116849;-0.0012943154433742;1
145;2410500000.0;0.1717434674501419;-0.0325371176004409;-0.0004201504925731;-0.0024909018538892;2
146;2470500000.0;-0.0997547879815101;-0.1410151720046997;0.0021778312511742;0.0032876902259886;3
147;2461333333.333334;-0.0411428362131118;-0.1806295663118362;0.0012349670287221;0.00136850529816;2
148;2474666666.666667;-0.1255481690168381;-0.1351332664489746;0.0036978446878492;0.0009897466516122;3
149;2414333333.333334;0.1741742938756943;-0.0510224923491478;-0.0007811590330675;-0.0025800347793847;3
150;2490500000.0;-0.1651109158992767;-0.0166123416274786;-0.0014577012043446;-0.0007882450590841;3
151;2473833333.333334;-0.1116794347763062;-0.1357467770576477;0.0017504325369372;-0.0012793905334547;2
152;2433833333.333334;0.1119262799620628;-0.1549699455499649;-0.0014500748366117;0.0025816208217293;3
153;2404666666.666667;0.1766393184661865;0.0224070362746715;-0.0016881987685337;0.0023035649210214;4
154;2404166666.666667;0.1706314831972122;0.0191125366836786;0.0045978841371834;0.0019542882218956;3
155;2453000000.0;8.626610906503629e-06;-0.1912501752376556;-0.0002248397213406;-0.002399677876383;3
156;2438666666.666667;0.0851166322827339;-0.1663529574871063;0.0015204643132165;-0.0015214175218716;2
157;2489333333.333334;-0.1708031743764877;-0.0436195880174636;-0.0027353288605809;0.0018556655850261;2
158;2478166666.666667;-0.1351069957017899;-0.110966183245182;0.0017100508557632;0.0053540193475782;4
159;2443833333.333334;0.0695549249649047;-0.1645001322031021;0.0007936807232908;0.0028470254037529;4
160;2438166666.666667;0.1325531303882599;-0.1379998922348023;-0.0007924880483187;-0.0015787574229761;1
161;2410833333.333334;0.1817379742860794;-0.0386257171630859;0.0013477813918143;0.004851899575442;4
162;2475333333.333334;-0.1037327647209168;-0.1266025602817535;-0.0027399559039622;0.004192806314677;4
163;2420500000.0;0.1835578829050064;-0.0438352711498737;0.001546781277284;0.00128103652969;1
164;2492166666.666667;-0.1708498746156693;-0.0436814203858375;0.0009822372812777;0.0029560811817646;1
165;2419166666.666667;0.1543356478214264;-0.0841336920857429;-0.0015796069055795;0.0017822752706706;2
166;2486666666.666667;-0.1470472365617752;-0.0579737722873687;0.0038839140906929;-0.0006323611014522;4
167;2413333333.333334;0.1770114302635193;-0.0445528179407119;0.0039103394374251;0.0023415863979607;4
168;2407833333.333334;0.1959211975336075;0.0436605289578437;-0.0026757265441119;-0.0001408776297466;1
169;2459833333.333334;-0.0271313562989234;-0.1816914081573486;4.846288356930018e-05;-0.0026577317621558;4
170;2488000000.0;-0.1598859280347824;-0.0492693744599819;-0.0010631235782057;-0.001533008296974;3
171;2488166666.666667;-0.1579461693763733;-0.0453919097781181;0.004214278422296;-0.0021770170424133;4
172;2433500000.0;0.1094918325543404;-0.1416199207305908;0.0029697534628212;-3.180884959874675e-05;2
173;2406000000.0;0.1912597864866257;0.0456240661442279;-0.0025584446266293;-0.0009360309340991;1
174;2489833333.333334;-0.1703455746173859;-0.0402221493422985;-0.0023152732755988;0.0017892958130687;2
175;2449833333.333334;0.071463719010353;-0.1617652773857117;-0.0011200213339179;0.0021675238385796;1
176;2405666666.666667;0.1781395375728607;0.0131990332156419;0.0044533163309097;4.349520531832241e-05;3
177;2496166666.666667;-0.1728063225746155;0.0161203499883413;-0.0014141207793727;-7.22093100193888e-05;3
178;2494166666.666667;-0.1817625015974045;-0.0322564840316772;0.0013605224667117;0.001361412811093;1
179;2404500000.0;0.1724516004323959;0.0172916017472744;0.0045436387881636;0.0016288462793454;3
180;2453666666.666667;0.01644192263484;-0.1817720979452133;0.0018950507510453;-0.0021508105564862;4
181;2407333333.333334;0.1803812980651856;0.0098169175907969;0.0035793236456811;-0.0014429024886339;3
182;2486000000.0;-0.1645000576972961;-0.056581974029541;-0.0016588167054578;-0.0005335891037248;2
183;2427666666.666667;0.1539736539125443;-0.1181894987821579;-0.0024070413783192;0.0003399291599635;3
184;2448000000.0;0.0311532188206911;-0.1852630823850632;-0.0019286286551505;-0.0010586744174361;2
185;2491500000.0;-0.1669720560312271;-0.0245350897312164;-0.0017315237782895;0.0021571954712271;2
186;2448000000.0;0.0859629362821579;-0.1645709276199341;-0.0020878636278212;0.0012613431317731;1
187;2416333333.333334;0.1584427505731583;-0.0642206296324729;-0.0040641073137521;0.0008804702665656;2
188;2476166666.666667;-0.11224814504385;-0.1189005449414253;-0.0016334783285856;0.005102327093482;4
189;2403000000.0;0.1625655591487885;0.0678312256932258;-0.0024524382315576;-0.0029711779206991;1
190;2487833333.333334;-0.1701516658067703;-0.049317643046379;-0.0033324169926345;-0.0003628975828178;2
191;2404500000.0;0.1783713102340698;0.0518145374953746;-0.0027025078888982;-0.0013783845352008;1
192;2431833333.333334;0.1438219696283341;-0.1183774843811989;0.0010738580022007;-0.0015041589504107;1
193;2431166666.666667;0.1480999737977982;-0.1138308644294739;0.001150793978013;-0.0015176523011177;1
194;2495666666.666667;-0.1695425361394882;0.0241422466933727;-0.0001200939514092;0.0033250828273594;2
195;2464333333.333334;-0.0734674036502838;-0.1755618453025818;-0.004174196626991;0.002371021779254;3
196;2402666666.666667;0.1744384914636612;0.0287447702139616;0.0031168838031589;-0.0008058824460022;2
197;2460666666.666667;-0.0382279157638549;-0.1827778667211533;0.0012289334554225;0.0018932312959805;2
198;2431333333.333334;0.1214436292648315;-0.1368528455495834;0.0026105630677193;0.0009713249164633;2
