;freq[Hz];re:Trc1_S11;im:Trc1_S11;re:Trc2_S21;im:Trc2_S21;location
0;2400000000.0;0.1694381386041641;0.0459906496107578;-0.0042566303163766;-0.000209655117942;4
1;2400166666.666667;0.170521154999733;0.0449987463653087;-0.0040370966307818;-6.558054883498698e-05;4
2;2400333333.333334;0.1712587028741837;0.0438602194190025;-0.0040797116234898;0.0001798996236175;4
3;2400500000.0;0.1723263114690781;0.0428283289074897;-0.004060014616698;0.0002402389072813;4
4;2400666666.666667;0.1732893139123917;0.041912455111742;-0.004082300234586;0.0005808159476146;4
5;2400833333.333334;0.1741115003824234;0.0410824604332447;-0.0040619131177663;0.0006382779683917;4
6;2401000000.0;0.1748651713132858;0.0404790751636028;-0.0039258385077118;0.000724479323253;4
7;2401166666.666667;0.1757037043571472;0.0397672951221466;-0.0039654830470681;0.0009241945226676;4
8;2401333333.333334;0.1762965172529221;0.0390499159693718;-0.0038448811974376;0.0010699663544073;4
9;2401500000.0;0.1770103871822357;0.0383530743420124;-0.0038678145501762;0.001352124614641;4
10;2401666666.666667;0.1779046505689621;0.0380314625799655;-0.0037661283276975;0.0014992674114182;4
11;2401833333.333334;0.1782853007316589;0.0372539311647415;-0.003659151494503;0.0016113915480673;4
12;2402000000.0;0.1786853522062302;0.0367083176970481;-0.003593620378524;0.0018078004941344;4
13;2402166666.666667;0.1789977550506592;0.0361247174441814;-0.003641860326752;0.0019528632983565;4
14;2402333333.333334;0.1794183403253555;0.0356561653316021;-0.0032425546087324;0.0020212631206959;4
15;2402500000.0;0.1799010336399078;0.0350505635142326;-0.0032412076834589;0.0021115820854902;4
16;2402666666.666667;0.1800139397382736;0.0345064140856266;-0.0031052194535732;0.0020995412487536;4
17;2402833333.333334;0.1801167875528336;0.0338433235883712;-0.003024089615792;0.002332154661417;4
18;2403000000.0;0.1799439638853073;0.0330935269594192;-0.002873001853004;0.0024723985698074;4
19;2403166666.666667;0.1801060438156128;0.0323085337877273;-0.0026899531949311;0.0023976652882993;4
20;2403333333.333334;0.1799930483102799;0.0316746570169925;-0.0024176526349037;0.002478796755895;4
21;2403500000.0;0.1795772165060043;0.0305805951356887;-0.0023273502010852;0.0023666697088629;4
22;2403666666.666667;0.179483100771904;0.0296397898346185;-0.0022278104443103;0.0026095891371369;4
23;2403833333.333334;0.1790882349014282;0.0286290608346462;-0.0021487630438059;0.0025386151392012;4
24;2404000000.0;0.1787690818309784;0.0274975951761007;-0.0020287935622036;0.0023358182515949;4
25;2404166666.666667;0.1783123910427094;0.0263039972633123;-0.0018328593578189;0.0023950207978487;4
26;2404333333.333334;0.1777761727571487;0.0252779964357614;-0.0016748302150517;0.0023400348145514;4
27;2404500000.0;0.1772239059209824;0.0238472260534763;-0.0018410085467621;0.0022307024337351;4
28;2404666666.666667;0.1766393184661865;0.0224070362746715;-0.0016881987685337;0.0023035649210214;4
29;2404833333.333334;0.1762672364711762;0.0209299959242343;-0.0016652696067467;0.0022226250730454;4
30;2405000000.0;0.1757185459136963;0.019480861723423;-0.0016988574061542;0.0021697408519685;4
31;2405166666.666667;0.1750939190387726;0.0179241523146629;-0.0014991624047979;0.0020328895188868;4
32;2405333333.333334;0.1747889667749405;0.0160842519253492;-0.001574344583787;0.0022059394977986;4
33;2405500000.0;0.1741998195648193;0.0144907487556338;-0.0017255255952477;0.0019654973875731;4
34;2405666666.666667;0.1738990247249603;0.0127583844587206;-0.0015672806184738;0.0022788646165281;4
35;2405833333.333334;0.1733097732067108;0.011096985079348;-0.0017208700301125;0.0021302918903529;4
36;2406000000.0;0.1730842739343643;0.0089730694890022;-0.001594488043338;0.002109867753461;4
37;2406166666.666667;0.1726235151290894;0.0073102382011711;-0.001692101242952;0.002274407306686;4
38;2406333333.333334;0.1726426631212235;0.0052393320947885;-0.0016212118789553;0.0020700781606137;4
39;2406500000.0;0.172403946518898;0.0030439584515988;-0.0016741621075198;0.0022222914267331;4
40;2406666666.666667;0.1721877455711365;0.001140761654824;-0.0016558619681745;0.0022637881338596;4
41;2406833333.333334;0.1722884327173233;-0.0010678599355742;-0.0017023071413859;0.0022263494320213;4
42;2407000000.0;0.1723354607820511;-0.0030950903892517;-0.0016771558439359;0.0025259610265493;4
43;2407166666.666667;0.1726772785186768;-0.0051591056399047;-0.001582634053193;0.0024844226427376;4
44;2407333333.333334;0.1726953834295273;-0.0073584169149398;-0.0018169101094827;0.0026130590122193;4
45;2407500000.0;0.1730228066444397;-0.0094674946740269;-0.0018882877193391;0.0027904054149985;4
46;2407666666.666667;0.1731935441493988;-0.0115689141675829;-0.0017919819802045;0.0028077366296201;4
47;2407833333.333334;0.1735183447599411;-0.0138326026499271;-0.0017735466826707;0.0028743620496243;4
48;2408000000.0;0.1739091873168945;-0.0158604569733142;-0.0016982608940452;0.003215164411813;4
49;2408166666.666667;0.1743786484003067;-0.0178326554596424;-0.001614551525563;0.0031049214303493;4
50;2408333333.333334;0.1749802231788635;-0.0197953842580318;-0.0016869886312633;0.0033305180259048;4
51;2408500000.0;0.1753673851490021;-0.0218423698097467;-0.0015900059370324;0.0036412151530385;4
52;2408666666.666667;0.1756639331579208;-0.0236798711121082;-0.001426589093171;0.0036961203441023;4
53;2408833333.333334;0.1761511117219925;-0.0253745410591363;-0.001385087147355;0.0040167882107198;4
54;2409000000.0;0.1766327023506165;-0.0270443186163902;-0.0011252727126702;0.0041390038095414;4
55;2409166666.666667;0.1770813316106796;-0.0287984032183885;-0.0009050796506926;0.0043126246891915;4
56;2409333333.333334;0.1776771694421768;-0.0301992241293191;-0.0008175734546966;0.0045082876458764;4
57;2409500000.0;0.1781403869390488;-0.0317778885364532;-0.0005556661635637;0.0044033587910234;4
58;2409666666.666667;0.1784459203481674;-0.0328880362212657;-0.0004572630859911;0.0046966886147856;4
59;2409833333.333334;0.1788681447505951;-0.033813253045082;-0.0001143457920989;0.0047241784632205;4
60;2410000000.0;0.1796770393848419;-0.0348634533584117;0.0001875810557976;0.0047431457787752;4
61;2410166666.666667;0.180137112736702;-0.0358067639172077;0.000237690139329;0.004735748283565;4
62;2410333333.333334;0.1803740859031677;-0.0367633998394012;0.0007103594252839;0.0046705575659871;4
63;2410500000.0;0.1810111701488495;-0.0374213270843029;0.0008492560009472;0.0047420766204595;4
64;2410666666.666667;0.1812393069267273;-0.0381252840161323;0.0010705379536375;0.0049435263499617;4
65;2410833333.333334;0.1817379742860794;-0.0386257171630859;0.0013477813918143;0.004851899575442;4
66;2411000000.0;0.1820065975189209;-0.0391333661973476;0.0016561321681365;0.0047731278464198;4
67;2411166666.666667;0.1822700947523117;-0.0398544892668724;0.0020006692502647;0.0046267625875771;4
68;2411333333.333334;0.1823788583278656;-0.0402336902916431;0.0021152349654585;0.0045747286640107;4
69;2411500000.0;0.1824645400047302;-0.0407706052064895;0.0025144841056317;0.0043860720470547;4
70;2411666666.666667;0.1825711876153946;-0.0412232801318168;0.0025641089305281;0.0042770523577928;4
71;2411833333.333334;0.1824088096618652;-0.0414879359304904;0.0028577365446835;0.0042372019961476;4
72;2412000000.0;0.1823180764913559;-0.0418568328022956;0.0030028398614376;0.0040006376802921;4
73;2412166666.666667;0.1819915622472763;-0.0421547479927539;0.0030995956622064;0.0037470061797648;4
74;2412333333.333334;0.1815319508314133;-0.0424116291105747;0.0034320936538279;0.0035497911740094;4
75;2412500000.0;0.1809564232826233;-0.0425925590097904;0.0035105156712234;0.0032449376303702;4
76;2412666666.666667;0.1804090589284897;-0.0432139001786708;0.0036278134211897;0.0030653206631541;4
77;2412833333.333334;0.1799244731664658;-0.0433735810220241;0.0037155891768634;0.0029122445266693;4
78;2413000000.0;0.1789326965808868;-0.0438931621611118;0.003721602493897;0.0028316811658442;4
79;2413166666.666667;0.1779999434947968;-0.0443059056997299;0.0039688386023044;0.0026397807523608;4
80;2413333333.333334;0.1770114302635193;-0.0445528179407119;0.0039103394374251;0.0023415863979607;4
81;2413500000.0;0.1761112362146378;-0.0449742078781127;0.0040787947364151;0.0022506990935653;4
82;2413666666.666667;0.1751292943954468;-0.0454830080270767;0.0041396529413759;0.0019013669807463;4
83;2413833333.333334;0.1739452183246613;-0.046004619449377;0.00420743227005;0.0019039632752537;4
84;2414000000.0;0.1725257784128189;-0.0468623489141464;0.0041461195796728;0.0016687718452885;4
85;2414166666.666667;0.1714918464422226;-0.0474146828055381;0.0041796462610363;0.0014474380295723;4
86;2414333333.333334;0.1701427102088928;-0.0481718480587005;0.0042873295024037;0.0013862940249964;4
87;2414500000.0;0.1691506505012512;-0.0489816591143608;0.0043746083974838;0.0010717699769884;4
88;2414666666.666667;0.1677336990833283;-0.0498308502137661;0.0043074307031929;0.0010488176485523;4
89;2414833333.333334;0.1665221899747849;-0.0509678944945335;0.0042991703376173;0.0008247176301665;4
90;2415000000.0;0.1652186512947083;-0.0520452782511711;0.0043218014761805;0.0005645695491693;4
91;2415166666.666667;0.1640339493751526;-0.0532899275422096;0.0042573860846459;0.0004168179875705;4
92;2415333333.333334;0.1628853231668472;-0.0547463707625865;0.0040337978862226;0.0001897656184155;4
93;2415500000.0;0.1617057472467423;-0.0560349635779857;0.0041810180991888;0.0001435001031495;4
94;2415666666.666667;0.1606071591377258;-0.0575173795223236;0.0040401280857622;-0.0002731325512286;4
95;2415833333.333334;0.1594210118055344;-0.0591026954352855;0.0038504381664097;-0.0003671697922982;4
96;2416000000.0;0.1582944244146347;-0.0607664845883846;0.0039023894350975;-0.0004697932163253;4
97;2416166666.666667;0.1574621796607971;-0.0625452697277069;0.003559645731002;-0.0007628569146618;4
98;2416333333.333334;0.1563123762607575;-0.0642464235424995;0.003695010440424;-0.0007473913719877;4
99;2416500000.0;0.155423179268837;-0.066171146929264;0.0034723202697932;-0.0009881049627438;4
100;2416666666.666667;0.1545037627220154;-0.0680287331342697;0.0033041280694305;-0.0010096454061567;4
101;2416833333.333334;0.1539125889539719;-0.0700684934854507;0.0032512864563614;-0.0011091295164078;4
102;2417000000.0;0.1529277712106705;-0.072060503065586;0.0030001807026565;-0.0012127378722652;4
103;2417166666.666667;0.1523071527481079;-0.0738461837172508;0.0027313160244375;-0.0011722112540155;4
104;2417333333.333334;0.1516829282045364;-0.0757745280861854;0.0027020270936191;-0.0011536017991602;4
105;2417500000.0;0.150971993803978;-0.078026182949543;0.0024739254731684;-0.0012821481795981;4
106;2417666666.666667;0.1506630629301071;-0.0797413140535354;0.0024310501758009;-0.0012314803898334;4
107;2417833333.333334;0.150202751159668;-0.0816272720694542;0.0022653271444141;-0.0010320127476006;4
108;2418000000.0;0.1497974991798401;-0.0835996493697166;0.0022366179618984;-0.0009804404107853;4
109;2418166666.666667;0.1496498882770538;-0.0851680636405944;0.0020781136117875;-0.0010794864501804;4
110;2418333333.333334;0.1497152745723724;-0.0869374722242355;0.0022175216581672;-0.0007616369402967;4
111;2418500000.0;0.1495284289121628;-0.0884616747498512;0.0022120913490653;-0.0008472339250147;4
112;2418666666.666667;0.1494777500629425;-0.0900951623916626;0.0020449121948331;-0.0006273373146541;4
113;2418833333.333334;0.1493807435035706;-0.0915718302130699;0.0022876795846968;-0.0004511316074058;4
114;2419000000.0;0.1493753343820572;-0.0928410738706588;0.002301704371348;-0.0004953003954142;4
115;2419166666.666667;0.1495265513658524;-0.0941666588187217;0.0023525573778897;-0.0004525900876615;4
116;2419333333.333334;0.1496750712394714;-0.095015525817871;0.0024138845037668;-0.0005720269982703;4
117;2419500000.0;0.1497345715761185;-0.0964175313711166;0.0026657504495233;-0.0004338557191658;4
118;2419666666.666667;0.1501274108886719;-0.097180001437664;0.0025745986495167;-0.0005535935633815;4
119;2419833333.333334;0.1504218876361847;-0.0979103073477745;0.0026554665528237;-0.0005095018423162;4
120;2420000000.0;0.1505894213914871;-0.0985968559980392;0.0028104654047638;-0.0006498492439277;4
121;2420166666.666667;0.1508276164531708;-0.0991941913962364;0.0028290464542806;-0.0007219067192636;4
122;2420333333.333334;0.1512854695320129;-0.0997784361243248;0.0030042335856705;-0.0007955693290568;4
123;2420500000.0;0.1516970545053482;-0.0997934490442276;0.0031821937300264;-0.0008389364811591;4
124;2420666666.666667;0.1517720371484757;-0.0999485254287719;0.0032880082726478;-0.001020140829496;4
125;2420833333.333334;0.1522469967603684;-0.1002573594450951;0.0034058804158121;-0.0010641915723681;4
126;2421000000.0;0.152420774102211;-0.1002935171127319;0.0033440482802689;-0.0013666683807969;4
127;2421166666.666667;0.1527934819459915;-0.1001665964722633;0.0033777998760342;-0.0016254915390163;4
128;2421333333.333334;0.1529671549797058;-0.1001411825418472;0.0033966570626944;-0.0017232912359759;4
129;2421500000.0;0.1530537903308868;-0.1000363752245903;0.0036207884550094;-0.0019014960853382;4
130;2421666666.666667;0.1530898064374924;-0.0997617989778518;0.0034786446485668;-0.0021541339810937;4
131;2421833333.333334;0.153077095746994;-0.0996156111359596;0.003500172868371;-0.0022357280831784;4
132;2422000000.0;0.1528449058532715;-0.0993233174085617;0.0034023723565042;-0.0025796832051128;4
133;2422166666.666667;0.152562141418457;-0.0991977900266647;0.0034391346853226;-0.0026940738316625;4
134;2422333333.333334;0.1523660868406296;-0.0986555069684982;0.0032941435929387;-0.0029631464276462;4
135;2422500000.0;0.1518564075231552;-0.098231628537178;0.0032861421350389;-0.0031368595082312;4
136;2422666666.666667;0.151235044002533;-0.0980640277266502;0.003022972960025;-0.0033809600863605;4
137;2422833333.333334;0.1504378467798233;-0.0977309271693229;0.0030108906794339;-0.0034948983229696;4
138;2423000000.0;0.1498689651489258;-0.0973569229245186;0.0027082436718046;-0.003797004930675;4
139;2423166666.666667;0.1489489227533341;-0.097018651664257;0.0026196280959993;-0.0039897449314594;4
140;2423333333.333334;0.1479479074478149;-0.0964174643158912;0.0022923797369003;-0.0041171796619892;4
141;2423500000.0;0.1468343585729599;-0.0963445678353309;0.0021915500983595;-0.0041698100976645;4
142;2423666666.666667;0.1454116255044937;-0.0960074365139007;0.002047625137493;-0.0043195206671953;4
143;2423833333.333334;0.1445264965295792;-0.0958348363637924;0.0018375287763774;-0.0045730280689895;4
144;2424000000.0;0.1431901305913925;-0.0955079793930053;0.0015421235002577;-0.004754913970828;4
145;2424166666.666667;0.1416440010070801;-0.0953960046172142;0.0012944682966917;-0.0046646045520901;4
146;2424333333.333334;0.1404287964105606;-0.0951656103134155;0.0009763485286384;-0.0046726125292479;4
147;2424500000.0;0.1389942914247513;-0.0953987315297126;0.0008801636868156;-0.0048187770880758;4
148;2424666666.666667;0.137518122792244;-0.0952689945697784;0.0006199848139658;-0.0046758586540818;4
149;2424833333.333334;0.1357271671295166;-0.0955380424857139;0.0002826451673172;-0.0047015086747705;4
150;2425000000.0;0.1343819200992584;-0.0959774330258369;0.0002550544741097;-0.0046352013014256;4
151;2425166666.666667;0.1327455639839172;-0.096310593187809;3.518665471347049e-05;-0.0047821104526519;4
152;2425333333.333334;0.1313887238502502;-0.0968901887536048;-0.0001898298069136;-0.0045095989480614;4
153;2425500000.0;0.1299114674329758;-0.0975394397974014;-0.0005074896034784;-0.0044095003977417;4
154;2425666666.666667;0.128250926733017;-0.0983875766396522;-0.0005577456322498;-0.0044125849381089;4
155;2425833333.333334;0.1268041878938675;-0.0992511063814163;-0.0008173991809599;-0.0043536648154258;4
156;2426000000.0;0.1253449618816376;-0.1003527566790581;-0.0008459662203676;-0.0043246154673397;4
157;2426166666.666667;0.1240646913647652;-0.1015010625123978;-0.0012143537169322;-0.0038873169105499;4
158;2426333333.333334;0.1227369382977486;-0.1026452630758286;-0.0011847988935187;-0.0040510804392397;4
159;2426500000.0;0.1216000467538834;-0.1039997264742851;-0.0013581379316747;-0.0040153786540031;4
160;2426666666.666667;0.1204456835985184;-0.1053856164216995;-0.0013700141571462;-0.0037209326401352;4
161;2426833333.333334;0.1192689687013626;-0.1069191694259644;-0.0014135343953967;-0.0036404517013579;4
162;2427000000.0;0.1181219071149826;-0.1086227372288704;-0.0015334652271121;-0.003513088915497;4
163;2427166666.666667;0.1171413660049439;-0.110078364610672;-0.0016030190745368;-0.0034073195420205;4
164;2427333333.333334;0.1161038875579834;-0.1118781045079231;-0.0016201754333451;-0.0034172157756984;4
165;2427500000.0;0.1155170872807503;-0.1135134175419807;-0.0016810197848826;-0.0032881845254451;4
166;2427666666.666667;0.1146901622414589;-0.1153910309076309;-0.0016334217507392;-0.003192477626726;4
167;2427833333.333334;0.1140707060694695;-0.1171576827764511;-0.0017438783543184;-0.0031824277248233;4
168;2428000000.0;0.1135134026408196;-0.1189301460981369;-0.0015989377861842;-0.0032090595923364;4
169;2428166666.666667;0.1130720376968384;-0.1206924393773079;-0.0017209546640515;-0.0031080197077244;4
170;2428333333.333334;0.113037571310997;-0.1224886998534203;-0.00168301560916;-0.0030836665537208;4
171;2428500000.0;0.1126472726464272;-0.1243704184889793;-0.0017843934474512;-0.0030717446934431;4
172;2428666666.666667;0.1126564964652062;-0.1260167807340622;-0.0018408878240734;-0.0031863353215157;4
173;2428833333.333334;0.1123619601130486;-0.1276490539312363;-0.0020119694527238;-0.0030865487642586;4
174;2429000000.0;0.1124911159276962;-0.1291430145502091;-0.0020244030747562;-0.0029768534004688;4
175;2429166666.666667;0.1125390976667404;-0.1306944340467453;-0.0020439224317669;-0.0029654672835022;4
176;2429333333.333334;0.1128104701638222;-0.1322474777698517;-0.0021345585118979;-0.0030145712662488;4
177;2429500000.0;0.1130735278129578;-0.1335769891738892;-0.0022531342692673;-0.0029230639338493;4
178;2429666666.666667;0.1131703853607178;-0.1349596381187439;-0.00231320457533;-0.0029990745242685;4
179;2429833333.333334;0.1136850640177727;-0.1359739750623703;-0.0023539033718407;-0.0029323115013539;4
180;2430000000.0;0.1140232458710671;-0.1373511254787445;-0.0025466622319072;-0.0028791909571737;4
181;2430166666.666667;0.1145168989896774;-0.1384053379297257;-0.0026294572744518;-0.0028025105129927;4
182;2430333333.333334;0.1150143221020699;-0.1391501426696777;-0.0027145992498844;-0.0027405361179262;4
183;2430500000.0;0.1153687015175819;-0.1399495005607605;-0.0026987942401319;-0.0028478880412876;4
184;2430666666.666667;0.1159725412726402;-0.1408487856388092;-0.0028542124200612;-0.0027253765147179;4
185;2430833333.333334;0.1164987534284592;-0.1415305733680725;-0.0029457160271704;-0.0025780946016311;4
186;2431000000.0;0.1171573624014854;-0.1419025957584381;-0.0031346168834716;-0.0025948432739824;4
187;2431166666.666667;0.117497593164444;-0.1424994319677353;-0.0032642462756484;-0.0025510636623948;4
188;2431333333.333334;0.1178375408053398;-0.1428071111440659;-0.0033221039921045;-0.0024753492325544;4
189;2431500000.0;0.1182562187314034;-0.1432184427976608;-0.0034965907689183;-0.0024930033832788;4
190;2431666666.666667;0.1186193972826004;-0.143380269408226;-0.0035477264318615;-0.0023065311834216;4
191;2431833333.333334;0.1186843290925026;-0.143467053771019;-0.0036751104053109;-0.0022855508141219;4
192;2432000000.0;0.1189770177006722;-0.1436061859130859;-0.0038112923502922;-0.0021763227414339;4
193;2432166666.666667;0.1190591752529144;-0.1433715224266052;-0.0039659119211137;-0.0021046421024948;4
194;2432333333.333334;0.1191036179661751;-0.1432423740625382;-0.0041675004176795;-0.0020245951600372;4
195;2432500000.0;0.1190064921975136;-0.1430924236774445;-0.0042935381643474;-0.0020193266682326;4
196;2432666666.666667;0.1187929511070252;-0.1427102386951447;-0.0044884327799081;-0.0017537845997139;4
197;2432833333.333334;0.1187309771776199;-0.1426680833101273;-0.0046360194683074;-0.0015654839808121;4
198;2433000000.0;0.1184725612401962;-0.1420502662658691;-0.0046469420194625;-0.0015933256363496;4
199;2433166666.666667;0.1180661469697952;-0.1415685266256332;-0.0049105184152722;-0.0014197297859936;4
